
T1FF4 000:981 SEGGER J-Link V4.80g Log File (0001ms, 0273ms total)
T1FF4 000:981 DLL Compiled: Feb 13 2014 20:50:02 (0001ms, 0273ms total)
T1FF4 000:981 Logging started @ 2017-09-11 09:23 (0001ms, 0273ms total)
T1FF4 000:982 JLINK_SetWarnOutHandler(...) (0000ms, 0273ms total)
T1FF4 000:982 JLINK_OpenEx(...)
Firmware: J-Link ARM V8 compiled Jan 31 2018 18:34:52
Hardware: V8.00
S/N: 20080643
Feature(s): RDI,FlashDL,FlashBP,JFlash,GDBFull  returns O.K. (0261ms, 0534ms total)
T1FF4 001:243 JLINK_SetErrorOutHandler(...) (0000ms, 0534ms total)
T1FF4 001:243 JLINK_ExecCommand("ProjectFile = "H:\SUN\³ÌÐò\ÅÀÉý»úÆ÷ÈË_1\USER\JLinkSettings.ini"", ...)  returns 0x00 (0001ms, 0535ms total)
T1FF4 001:250 JLINK_ExecCommand("Device = STM32F103C8", ...)Device "STM32F103C8" selected (64 KB flash, 20 KB RAM).  returns 0x00 (0007ms, 0542ms total)
T1FF4 001:257 JLINK_ExecCommand("DisableConnectionTimeout", ...)  returns 0x01 (0000ms, 0542ms total)
T1FF4 001:257 JLINK_GetHardwareVersion()  returns 0x13880 (0000ms, 0542ms total)
T1FF4 001:257 JLINK_GetDLLVersion()  returns 48007 (0000ms, 0542ms total)
T1FF4 001:257 JLINK_GetFirmwareString(...) (0000ms, 0542ms total)
T1FF4 001:273 JLINK_GetDLLVersion()  returns 48007 (0000ms, 0542ms total)
T1FF4 001:273 JLINK_GetCompileDateTime() (0000ms, 0542ms total)
T1FF4 001:281 JLINK_GetFirmwareString(...) (0000ms, 0542ms total)
T1FF4 001:289 JLINK_GetHardwareVersion()  returns 0x13880 (0001ms, 0543ms total)
T1FF4 001:303 JLINK_TIF_Select(JLINKARM_TIF_SWD)  returns 0x00 (0002ms, 0545ms total)
T1FF4 001:305 JLINK_SetSpeed(2000) (0000ms, 0545ms total)
T1FF4 001:305 JLINK_GetId() >0x108 TIF>Found SWD-DP with ID 0x1BA01477 >0x0D TIF> >0x28 TIF> >0x0D TIF> >0x28 TIF> >0x0D TIF> >0x21 TIF> >0x0D TIF> >0x28 TIF> >0x0D TIF> >0x28 TIF> >0x0D TIF> >0x28 TIF> >0x0D TIF> >0x21 TIF> >0x0D TIF> >0x21 TIF> >0x0D TIF> >0x28 TIF> >0x0D TIF> >0x21 TIF> >0x0D TIF> >0x21 TIF> >0x108 TIF>Found SWD-DP with ID 0x1BA01477 >0x0D TIF> >0x21 TIF> >0x0D TIF> >0x28 TIF> >0x0D TIF> >0x28 TIF> >0x0D TIF> >0x21 TIF> >0x0D TIF> >0x28 TIF> >0x0D TIF> >0x21 TIF> >0x0D TIF> >0x21 TIF>
 >0x0D TIF> >0x21 TIF> >0x0D TIF> >0x28 TIF> >0x0D TIF> >0x21 TIF> >0x0D TIF> >0x28 TIF> >0x0D TIF> >0x28 TIF> >0x0D TIF> >0x21 TIF> >0x0D TIF> >0x28 TIF> >0x0D TIF> >0x28 TIF> >0x0D TIF> >0x28 TIF> >0x0D TIF> >0x21 TIF> >0x0D TIF> >0x21 TIF> >0x0D TIF> >0x28 TIF> >0x0D TIF> >0x21 TIF> >0x0D TIF> >0x21 TIF>Found Cortex-M3 r1p1, Little endian. >0x0D TIF> >0x28 TIF> -- CPU_WriteMem(4 bytes @ 0xE0002000) -- CPU_ReadMem(4 bytes @ 0xE000EDF0) -- CPU_ReadMem(4 bytes @ 0xE0002000)
FPUnit: 6 code (BP) slots and 2 literal slots -- CPU_ReadMem(4 bytes @ 0xE000EDFC) -- CPU_ReadMem(4 bytes @ 0xE0001000) -- CPU_WriteMem(4 bytes @ 0xE0001000) -- CPU_ReadMem(4 bytes @ 0xE00FF010)TPIU fitted. -- CPU_ReadMem(4 bytes @ 0xE00FF014) -- CPU_ReadMem(4 bytes @ 0xE00FF018) >0x0D TIF> >0x21 TIF>  returns 0x1BA01477 (0064ms, 0609ms total)
T1FF4 001:369 JLINK_GetDeviceFamily()  returns 3 (0000ms, 0609ms total)
T1FF4 001:371 JLINK_ReadMem (0xE00FFFF0, 0x0010 Bytes, ...) -- CPU is running -- CPU_ReadMem(16 bytes @ 0xE00FFFF0) -- Data:  0D 00 00 00 10 00 00 00 05 00 00 00 B1 00 00 00  returns 0x00 (0002ms, 0611ms total)
T1FF4 001:373 JLINK_ReadMem (0xE00FFFD0, 0x0020 Bytes, ...) -- CPU is running -- CPU_ReadMem(32 bytes @ 0xE00FFFD0) -- Data:  00 00 00 00 00 00 00 00 00 00 00 00 00 00 00 00 ...  returns 0x00 (0001ms, 0612ms total)
T1FF4 001:374 JLINK_ReadMem (0xE00FF000, 0x0018 Bytes, ...) -- CPU is running -- CPU_ReadMem(24 bytes @ 0xE00FF000) -- Data:  03 F0 F0 FF 03 20 F0 FF 03 30 F0 FF 03 10 F0 FF ...  returns 0x00 (0000ms, 0612ms total)
T1FF4 001:375 JLINK_ReadMemU32(0xE000ED00, 0x0001 Items, ...) -- CPU is running -- CPU_ReadMem(4 bytes @ 0xE000ED00) -- Data:  31 C2 1F 41  returns 0x01 (0000ms, 0613ms total)
T1FF4 001:375 JLINK_SetResetType(JLINKARM_RESET_TYPE_NORMAL)  returns JLINKARM_RESET_TYPE_NORMAL (0000ms, 0613ms total)
T1FF4 001:375 JLINK_Reset() -- CPU_WriteMem(4 bytes @ 0xE0002000) -- CPU_ReadMem(4 bytes @ 0xE000EDFC) -- CPU_WriteMem(4 bytes @ 0xE000EDFC) -- CPU_ReadMem(4 bytes @ 0xE0001000) (0018ms, 0631ms total)
T1FF4 001:393 JLINK_Halt()  returns 0x00 (0000ms, 0631ms total)
T1FF4 001:393 JLINK_IsHalted()  returns TRUE (0000ms, 0631ms total)
T1FF4 001:393 JLINK_ReadMemU32(0xE000EDF0, 0x0001 Items, ...) -- CPU_ReadMem(4 bytes @ 0xE000EDF0) -- Data:  03 00 03 00  returns 0x01 (0001ms, 0632ms total)
T1FF4 001:394 JLINK_WriteU32(0xE000EDF0, 0xA05F0003) -- CPU_WriteMem(4 bytes @ 0xE000EDF0)  returns 0x00 (0001ms, 0633ms total)
T1FF4 001:395 JLINK_WriteU32(0xE000EDFC, 0x01000000) -- CPU_WriteMem(4 bytes @ 0xE000EDFC)  returns 0x00 (0000ms, 0633ms total)
T1FF4 001:403 JLINK_GetHWStatus(...)  returns 0x00 (0000ms, 0633ms total)
T1FF4 001:409 JLINK_GetNumBPUnits(Type = 0xFFFFFF00)  returns 0x06 (0000ms, 0633ms total)
T1FF4 001:409 JLINK_GetNumBPUnits(Type = 0xF0)  returns 0x2000 (0000ms, 0633ms total)
T1FF4 001:409 JLINK_GetNumWPUnits()  returns 0x04 (0000ms, 0633ms total)
T1FF4 001:413 JLINK_GetSpeed()  returns 0x7D0 (0000ms, 0633ms total)
T1FF4 001:417 JLINK_ReadMemU32(0xE000E004, 0x0001 Items, ...) -- CPU_ReadMem(4 bytes @ 0xE000E004) -- Data:  01 00 00 00  returns 0x01 (0001ms, 0634ms total)
T1FF4 001:418 JLINK_ReadMemU32(0xE000E004, 0x0001 Items, ...) -- CPU_ReadMem(4 bytes @ 0xE000E004) -- Data:  01 00 00 00  returns 0x01 (0001ms, 0635ms total)
T1FF4 001:419 JLINK_WriteMem(0xE0001000, 0x001C Bytes, ...) -- Data:  01 00 00 00 00 00 00 00 00 00 00 00 00 00 00 00 ... -- CPU_WriteMem(28 bytes @ 0xE0001000)  returns 0x1C (0001ms, 0636ms total)
T1FF4 001:420 JLINK_ReadMem (0xE0001000, 0x001C Bytes, ...) -- CPU_ReadMem(28 bytes @ 0xE0001000) -- Data:  01 00 00 40 00 00 00 00 00 00 00 00 00 00 00 00 ...  returns 0x00 (0001ms, 0637ms total)
T1FF4 001:421 JLINK_Halt()  returns 0x00 (0000ms, 0637ms total)
T1FF4 001:421 JLINK_IsHalted()  returns TRUE (0000ms, 0637ms total)
T1FF4 001:423 JLINK_WriteMem(0x20000000, 0x0164 Bytes, ...) -- Data:  00 BE 0A E0 0D 78 2D 06 68 40 08 24 40 00 00 D3 ... -- CPU_WriteMem(356 bytes @ 0x20000000)  returns 0x164 (0004ms, 0641ms total)
T1FF4 001:427 JLINK_WriteReg(R0, 0x08000000)  returns 0x00 (0000ms, 0641ms total)
T1FF4 001:427 JLINK_WriteReg(R1, 0x007A1200)  returns 0x00 (0000ms, 0641ms total)
T1FF4 001:427 JLINK_WriteReg(R2, 0x00000001)  returns 0x00 (0000ms, 0641ms total)
T1FF4 001:427 JLINK_WriteReg(R3, 0x00000000)  returns 0x00 (0000ms, 0641ms total)
T1FF4 001:427 JLINK_WriteReg(R4, 0x00000000)  returns 0x00 (0000ms, 0641ms total)
T1FF4 001:427 JLINK_WriteReg(R5, 0x00000000)  returns 0x00 (0000ms, 0641ms total)
T1FF4 001:427 JLINK_WriteReg(R6, 0x00000000)  returns 0x00 (0000ms, 0641ms total)
T1FF4 001:427 JLINK_WriteReg(R7, 0x00000000)  returns 0x00 (0000ms, 0641ms total)
T1FF4 001:427 JLINK_WriteReg(R8, 0x00000000)  returns 0x00 (0000ms, 0641ms total)
T1FF4 001:427 JLINK_WriteReg(R9, 0x20000160)  returns 0x00 (0000ms, 0641ms total)
T1FF4 001:427 JLINK_WriteReg(R10, 0x00000000)  returns 0x00 (0000ms, 0641ms total)
T1FF4 001:427 JLINK_WriteReg(R11, 0x00000000)  returns 0x00 (0000ms, 0641ms total)
T1FF4 001:427 JLINK_WriteReg(R12, 0x00000000)  returns 0x00 (0000ms, 0641ms total)
T1FF4 001:427 JLINK_WriteReg(R13 (SP), 0x20000800)  returns 0x00 (0000ms, 0641ms total)
T1FF4 001:427 JLINK_WriteReg(R14, 0x20000001)  returns 0x00 (0000ms, 0641ms total)
T1FF4 001:427 JLINK_WriteReg(R15 (PC), 0x20000038)  returns 0x00 (0000ms, 0641ms total)
T1FF4 001:427 JLINK_WriteReg(XPSR, 0x01000000)  returns 0x00 (0001ms, 0642ms total)
T1FF4 001:428 JLINK_WriteReg(MSP, 0x20000800)  returns 0x00 (0000ms, 0642ms total)
T1FF4 001:428 JLINK_WriteReg(PSP, 0x20000800)  returns 0x00 (0000ms, 0642ms total)
T1FF4 001:428 JLINK_WriteReg(CFBP, 0x00000000)  returns 0x00 (0000ms, 0642ms total)
T1FF4 001:428 JLINK_SetBPEx(Addr = 0x20000000, Type = 0xFFFFFFF2) -- CPU_ReadMem(2 bytes @ 0x20000000)  returns 0x00000001 (0000ms, 0642ms total)
T1FF4 001:428 JLINK_Go() -- CPU_WriteMem(2 bytes @ 0x20000000) -- CPU_WriteMem(4 bytes @ 0xE0002008) -- CPU_WriteMem(4 bytes @ 0xE000200C) -- CPU_WriteMem(4 bytes @ 0xE0002010) -- CPU_WriteMem(4 bytes @ 0xE0002014) -- CPU_WriteMem(4 bytes @ 0xE0002018) -- CPU_WriteMem(4 bytes @ 0xE000201C) -- CPU_WriteMem(4 bytes @ 0xE0001004) (0008ms, 0650ms total)
T1FF4 001:436 JLINK_IsHalted() -- CPU_ReadMem(2 bytes @ 0x20000000)  returns TRUE (0006ms, 0656ms total)
T1FF4 001:442 JLINK_ReadReg(R15 (PC))  returns 0x20000000 (0000ms, 0650ms total)
T1FF4 001:442 JLINK_ClrBPEx(BPHandle = 0x00000001)  returns 0x00 (0000ms, 0650ms total)
T1FF4 001:442 JLINK_ReadReg(R0)  returns 0x00000000 (0000ms, 0650ms total)
T1FF4 001:442 JLINK_WriteReg(R0, 0x08000000)  returns 0x00 (0000ms, 0650ms total)
T1FF4 001:442 JLINK_WriteReg(R1, 0x007A1200)  returns 0x00 (0000ms, 0650ms total)
T1FF4 001:442 JLINK_WriteReg(R2, 0x00000001)  returns 0x00 (0000ms, 0650ms total)
T1FF4 001:442 JLINK_WriteReg(R3, 0x00000000)  returns 0x00 (0000ms, 0650ms total)
T1FF4 001:442 JLINK_WriteReg(R4, 0x00000000)  returns 0x00 (0000ms, 0650ms total)
T1FF4 001:442 JLINK_WriteReg(R5, 0x00000000)  returns 0x00 (0000ms, 0650ms total)
T1FF4 001:442 JLINK_WriteReg(R6, 0x00000000)  returns 0x00 (0000ms, 0650ms total)
T1FF4 001:442 JLINK_WriteReg(R7, 0x00000000)  returns 0x00 (0000ms, 0650ms total)
T1FF4 001:442 JLINK_WriteReg(R8, 0x00000000)  returns 0x00 (0000ms, 0650ms total)
T1FF4 001:442 JLINK_WriteReg(R9, 0x20000160)  returns 0x00 (0000ms, 0650ms total)
T1FF4 001:442 JLINK_WriteReg(R10, 0x00000000)  returns 0x00 (0000ms, 0650ms total)
T1FF4 001:442 JLINK_WriteReg(R11, 0x00000000)  returns 0x00 (0000ms, 0650ms total)
T1FF4 001:442 JLINK_WriteReg(R12, 0x00000000)  returns 0x00 (0000ms, 0650ms total)
T1FF4 001:442 JLINK_WriteReg(R13 (SP), 0x20000800)  returns 0x00 (0000ms, 0650ms total)
T1FF4 001:443 JLINK_WriteReg(R14, 0x20000001)  returns 0x00 (0000ms, 0651ms total)
T1FF4 001:443 JLINK_WriteReg(R15 (PC), 0x2000007C)  returns 0x00 (0000ms, 0651ms total)
T1FF4 001:443 JLINK_WriteReg(XPSR, 0x01000000)  returns 0x00 (0000ms, 0651ms total)
T1FF4 001:443 JLINK_WriteReg(MSP, 0x20000800)  returns 0x00 (0000ms, 0651ms total)
T1FF4 001:443 JLINK_WriteReg(PSP, 0x20000800)  returns 0x00 (0000ms, 0651ms total)
T1FF4 001:443 JLINK_WriteReg(CFBP, 0x00000000)  returns 0x00 (0000ms, 0651ms total)
T1FF4 001:443 JLINK_SetBPEx(Addr = 0x20000000, Type = 0xFFFFFFF2)  returns 0x00000002 (0000ms, 0651ms total)
T1FF4 001:443 JLINK_Go() (0001ms, 0652ms total)
T1FF4 001:444 JLINK_IsHalted()  returns FALSE (0001ms, 0653ms total)
T1FF4 001:553 JLINK_IsHalted() -- CPU_ReadMem(2 bytes @ 0x20000000)  returns TRUE (0005ms, 0657ms total)
T1FF4 001:558 JLINK_ReadReg(R15 (PC))  returns 0x20000000 (0001ms, 0653ms total)
T1FF4 001:559 JLINK_ClrBPEx(BPHandle = 0x00000002)  returns 0x00 (0000ms, 0653ms total)
T1FF4 001:559 JLINK_ReadReg(R0)  returns 0x00000000 (0000ms, 0653ms total)
T1FF4 001:609 JLINK_WriteReg(R0, 0x00000001)  returns 0x00 (0000ms, 0653ms total)
T1FF4 001:609 JLINK_WriteReg(R1, 0x007A1200)  returns 0x00 (0000ms, 0653ms total)
T1FF4 001:609 JLINK_WriteReg(R2, 0x00000001)  returns 0x00 (0000ms, 0653ms total)
T1FF4 001:609 JLINK_WriteReg(R3, 0x00000000)  returns 0x00 (0000ms, 0653ms total)
T1FF4 001:609 JLINK_WriteReg(R4, 0x00000000)  returns 0x00 (0000ms, 0653ms total)
T1FF4 001:609 JLINK_WriteReg(R5, 0x00000000)  returns 0x00 (0000ms, 0653ms total)
T1FF4 001:609 JLINK_WriteReg(R6, 0x00000000)  returns 0x00 (0000ms, 0653ms total)
T1FF4 001:609 JLINK_WriteReg(R7, 0x00000000)  returns 0x00 (0000ms, 0653ms total)
T1FF4 001:609 JLINK_WriteReg(R8, 0x00000000)  returns 0x00 (0000ms, 0653ms total)
T1FF4 001:609 JLINK_WriteReg(R9, 0x20000160)  returns 0x00 (0000ms, 0653ms total)
T1FF4 001:609 JLINK_WriteReg(R10, 0x00000000)  returns 0x00 (0000ms, 0653ms total)
T1FF4 001:609 JLINK_WriteReg(R11, 0x00000000)  returns 0x00 (0000ms, 0653ms total)
T1FF4 001:609 JLINK_WriteReg(R12, 0x00000000)  returns 0x00 (0000ms, 0653ms total)
T1FF4 001:609 JLINK_WriteReg(R13 (SP), 0x20000800)  returns 0x00 (0000ms, 0653ms total)
T1FF4 001:609 JLINK_WriteReg(R14, 0x20000001)  returns 0x00 (0000ms, 0653ms total)
T1FF4 001:609 JLINK_WriteReg(R15 (PC), 0x2000006A)  returns 0x00 (0000ms, 0653ms total)
T1FF4 001:609 JLINK_WriteReg(XPSR, 0x01000000)  returns 0x00 (0000ms, 0653ms total)
T1FF4 001:609 JLINK_WriteReg(MSP, 0x20000800)  returns 0x00 (0000ms, 0653ms total)
T1FF4 001:609 JLINK_WriteReg(PSP, 0x20000800)  returns 0x00 (0000ms, 0653ms total)
T1FF4 001:609 JLINK_WriteReg(CFBP, 0x00000000)  returns 0x00 (0001ms, 0654ms total)
T1FF4 001:610 JLINK_SetBPEx(Addr = 0x20000000, Type = 0xFFFFFFF2)  returns 0x00000003 (0000ms, 0654ms total)
T1FF4 001:610 JLINK_Go() (0001ms, 0655ms total)
T1FF4 001:611 JLINK_IsHalted() -- CPU_ReadMem(2 bytes @ 0x20000000)  returns TRUE (0006ms, 0661ms total)
T1FF4 001:617 JLINK_ReadReg(R15 (PC))  returns 0x20000000 (0000ms, 0655ms total)
T1FF4 001:617 JLINK_ClrBPEx(BPHandle = 0x00000003)  returns 0x00 (0000ms, 0655ms total)
T1FF4 001:617 JLINK_ReadReg(R0)  returns 0x00000000 (0000ms, 0655ms total)
T1FF4 001:622 JLINK_WriteMem(0x20000000, 0x0164 Bytes, ...) -- Data:  00 BE 0A E0 0D 78 2D 06 68 40 08 24 40 00 00 D3 ... -- CPU_WriteMem(356 bytes @ 0x20000000)  returns 0x164 (0004ms, 0659ms total)
T1FF4 001:626 JLINK_WriteReg(R0, 0x08000000)  returns 0x00 (0000ms, 0659ms total)
T1FF4 001:626 JLINK_WriteReg(R1, 0x007A1200)  returns 0x00 (0000ms, 0659ms total)
T1FF4 001:626 JLINK_WriteReg(R2, 0x00000002)  returns 0x00 (0000ms, 0659ms total)
T1FF4 001:626 JLINK_WriteReg(R3, 0x00000000)  returns 0x00 (0000ms, 0659ms total)
T1FF4 001:626 JLINK_WriteReg(R4, 0x00000000)  returns 0x00 (0000ms, 0659ms total)
T1FF4 001:626 JLINK_WriteReg(R5, 0x00000000)  returns 0x00 (0000ms, 0659ms total)
T1FF4 001:626 JLINK_WriteReg(R6, 0x00000000)  returns 0x00 (0000ms, 0659ms total)
T1FF4 001:626 JLINK_WriteReg(R7, 0x00000000)  returns 0x00 (0000ms, 0659ms total)
T1FF4 001:626 JLINK_WriteReg(R8, 0x00000000)  returns 0x00 (0000ms, 0659ms total)
T1FF4 001:626 JLINK_WriteReg(R9, 0x20000160)  returns 0x00 (0000ms, 0659ms total)
T1FF4 001:626 JLINK_WriteReg(R10, 0x00000000)  returns 0x00 (0000ms, 0659ms total)
T1FF4 001:626 JLINK_WriteReg(R11, 0x00000000)  returns 0x00 (0000ms, 0659ms total)
T1FF4 001:626 JLINK_WriteReg(R12, 0x00000000)  returns 0x00 (0000ms, 0659ms total)
T1FF4 001:626 JLINK_WriteReg(R13 (SP), 0x20000800)  returns 0x00 (0000ms, 0659ms total)
T1FF4 001:626 JLINK_WriteReg(R14, 0x20000001)  returns 0x00 (0000ms, 0659ms total)
T1FF4 001:626 JLINK_WriteReg(R15 (PC), 0x20000038)  returns 0x00 (0000ms, 0659ms total)
T1FF4 001:626 JLINK_WriteReg(XPSR, 0x01000000)  returns 0x00 (0001ms, 0660ms total)
T1FF4 001:627 JLINK_WriteReg(MSP, 0x20000800)  returns 0x00 (0000ms, 0660ms total)
T1FF4 001:627 JLINK_WriteReg(PSP, 0x20000800)  returns 0x00 (0000ms, 0660ms total)
T1FF4 001:627 JLINK_WriteReg(CFBP, 0x00000000)  returns 0x00 (0000ms, 0660ms total)
T1FF4 001:627 JLINK_SetBPEx(Addr = 0x20000000, Type = 0xFFFFFFF2) -- CPU_ReadMem(2 bytes @ 0x20000000)  returns 0x00000004 (0000ms, 0660ms total)
T1FF4 001:627 JLINK_Go() -- CPU_WriteMem(2 bytes @ 0x20000000) (0003ms, 0663ms total)
T1FF4 001:630 JLINK_IsHalted() -- CPU_ReadMem(2 bytes @ 0x20000000)  returns TRUE (0006ms, 0669ms total)
T1FF4 001:636 JLINK_ReadReg(R15 (PC))  returns 0x20000000 (0000ms, 0663ms total)
T1FF4 001:636 JLINK_ClrBPEx(BPHandle = 0x00000004)  returns 0x00 (0000ms, 0663ms total)
T1FF4 001:636 JLINK_ReadReg(R0)  returns 0x00000000 (0000ms, 0663ms total)
T1FF4 001:636 JLINK_WriteMem(0x20000164, 0x0400 Bytes, ...) -- Data:  98 0E 00 20 01 01 00 08 E5 02 00 08 E7 02 00 08 ... -- CPU_WriteMem(1024 bytes @ 0x20000164)  returns 0x400 (0011ms, 0674ms total)
T1FF4 001:647 JLINK_WriteReg(R0, 0x08000000)  returns 0x00 (0000ms, 0674ms total)
T1FF4 001:647 JLINK_WriteReg(R1, 0x00000400)  returns 0x00 (0000ms, 0674ms total)
T1FF4 001:647 JLINK_WriteReg(R2, 0x20000164)  returns 0x00 (0000ms, 0674ms total)
T1FF4 001:647 JLINK_WriteReg(R3, 0x00000000)  returns 0x00 (0000ms, 0674ms total)
T1FF4 001:647 JLINK_WriteReg(R4, 0x00000000)  returns 0x00 (0000ms, 0674ms total)
T1FF4 001:647 JLINK_WriteReg(R5, 0x00000000)  returns 0x00 (0000ms, 0674ms total)
T1FF4 001:647 JLINK_WriteReg(R6, 0x00000000)  returns 0x00 (0000ms, 0674ms total)
T1FF4 001:647 JLINK_WriteReg(R7, 0x00000000)  returns 0x00 (0000ms, 0674ms total)
T1FF4 001:647 JLINK_WriteReg(R8, 0x00000000)  returns 0x00 (0001ms, 0675ms total)
T1FF4 001:648 JLINK_WriteReg(R9, 0x20000160)  returns 0x00 (0000ms, 0675ms total)
T1FF4 001:648 JLINK_WriteReg(R10, 0x00000000)  returns 0x00 (0000ms, 0675ms total)
T1FF4 001:648 JLINK_WriteReg(R11, 0x00000000)  returns 0x00 (0000ms, 0675ms total)
T1FF4 001:648 JLINK_WriteReg(R12, 0x00000000)  returns 0x00 (0000ms, 0675ms total)
T1FF4 001:648 JLINK_WriteReg(R13 (SP), 0x20000800)  returns 0x00 (0000ms, 0675ms total)
T1FF4 001:648 JLINK_WriteReg(R14, 0x20000001)  returns 0x00 (0000ms, 0675ms total)
T1FF4 001:648 JLINK_WriteReg(R15 (PC), 0x200000F4)  returns 0x00 (0000ms, 0675ms total)
T1FF4 001:648 JLINK_WriteReg(XPSR, 0x01000000)  returns 0x00 (0000ms, 0675ms total)
T1FF4 001:648 JLINK_WriteReg(MSP, 0x20000800)  returns 0x00 (0000ms, 0675ms total)
T1FF4 001:648 JLINK_WriteReg(PSP, 0x20000800)  returns 0x00 (0000ms, 0675ms total)
T1FF4 001:648 JLINK_WriteReg(CFBP, 0x00000000)  returns 0x00 (0000ms, 0675ms total)
T1FF4 001:648 JLINK_SetBPEx(Addr = 0x20000000, Type = 0xFFFFFFF2)  returns 0x00000005 (0000ms, 0675ms total)
T1FF4 001:648 JLINK_Go() (0002ms, 0677ms total)
T1FF4 001:650 JLINK_IsHalted()  returns FALSE (0000ms, 0677ms total)
T1FF4 001:744 JLINK_IsHalted() -- CPU_ReadMem(2 bytes @ 0x20000000)  returns TRUE (0008ms, 0685ms total)
T1FF4 001:752 JLINK_ReadReg(R15 (PC))  returns 0x20000000 (0000ms, 0677ms total)
T1FF4 001:752 JLINK_ClrBPEx(BPHandle = 0x00000005)  returns 0x00 (0000ms, 0677ms total)
T1FF4 001:752 JLINK_ReadReg(R0)  returns 0x00000000 (0000ms, 0677ms total)
T1FF4 001:752 JLINK_WriteMem(0x20000164, 0x0400 Bytes, ...) -- Data:  00 1F 00 68 40 F4 80 70 13 49 09 1F 08 60 08 1D ... -- CPU_WriteMem(1024 bytes @ 0x20000164)  returns 0x400 (0011ms, 0688ms total)
T1FF4 001:763 JLINK_WriteReg(R0, 0x08000400)  returns 0x00 (0000ms, 0688ms total)
T1FF4 001:763 JLINK_WriteReg(R1, 0x00000400)  returns 0x00 (0000ms, 0688ms total)
T1FF4 001:763 JLINK_WriteReg(R2, 0x20000164)  returns 0x00 (0001ms, 0689ms total)
T1FF4 001:764 JLINK_WriteReg(R3, 0x00000000)  returns 0x00 (0000ms, 0689ms total)
T1FF4 001:764 JLINK_WriteReg(R4, 0x00000000)  returns 0x00 (0000ms, 0689ms total)
T1FF4 001:764 JLINK_WriteReg(R5, 0x00000000)  returns 0x00 (0000ms, 0689ms total)
T1FF4 001:764 JLINK_WriteReg(R6, 0x00000000)  returns 0x00 (0000ms, 0689ms total)
T1FF4 001:764 JLINK_WriteReg(R7, 0x00000000)  returns 0x00 (0000ms, 0689ms total)
T1FF4 001:764 JLINK_WriteReg(R8, 0x00000000)  returns 0x00 (0000ms, 0689ms total)
T1FF4 001:764 JLINK_WriteReg(R9, 0x20000160)  returns 0x00 (0000ms, 0689ms total)
T1FF4 001:764 JLINK_WriteReg(R10, 0x00000000)  returns 0x00 (0000ms, 0689ms total)
T1FF4 001:764 JLINK_WriteReg(R11, 0x00000000)  returns 0x00 (0000ms, 0689ms total)
T1FF4 001:764 JLINK_WriteReg(R12, 0x00000000)  returns 0x00 (0000ms, 0689ms total)
T1FF4 001:764 JLINK_WriteReg(R13 (SP), 0x20000800)  returns 0x00 (0000ms, 0689ms total)
T1FF4 001:764 JLINK_WriteReg(R14, 0x20000001)  returns 0x00 (0000ms, 0689ms total)
T1FF4 001:764 JLINK_WriteReg(R15 (PC), 0x200000F4)  returns 0x00 (0000ms, 0689ms total)
T1FF4 001:764 JLINK_WriteReg(XPSR, 0x01000000)  returns 0x00 (0000ms, 0689ms total)
T1FF4 001:764 JLINK_WriteReg(MSP, 0x20000800)  returns 0x00 (0000ms, 0689ms total)
T1FF4 001:764 JLINK_WriteReg(PSP, 0x20000800)  returns 0x00 (0000ms, 0689ms total)
T1FF4 001:764 JLINK_WriteReg(CFBP, 0x00000000)  returns 0x00 (0000ms, 0689ms total)
T1FF4 001:764 JLINK_SetBPEx(Addr = 0x20000000, Type = 0xFFFFFFF2)  returns 0x00000006 (0000ms, 0689ms total)
T1FF4 001:764 JLINK_Go() (0002ms, 0691ms total)
T1FF4 001:766 JLINK_IsHalted()  returns FALSE (0000ms, 0691ms total)
T1FF4 001:774 JLINK_IsHalted()  returns FALSE (0000ms, 0691ms total)
T1FF4 001:775 JLINK_IsHalted()  returns FALSE (0000ms, 0691ms total)
T1FF4 001:776 JLINK_IsHalted()  returns FALSE (0000ms, 0691ms total)
T1FF4 001:777 JLINK_IsHalted()  returns FALSE (0000ms, 0691ms total)
T1FF4 001:778 JLINK_IsHalted()  returns FALSE (0000ms, 0691ms total)
T1FF4 001:779 JLINK_IsHalted()  returns FALSE (0000ms, 0691ms total)
T1FF4 001:780 JLINK_IsHalted()  returns FALSE (0000ms, 0691ms total)
T1FF4 001:781 JLINK_IsHalted()  returns FALSE (0000ms, 0691ms total)
T1FF4 001:785 JLINK_IsHalted()  returns FALSE (0000ms, 0691ms total)
T1FF4 001:786 JLINK_IsHalted()  returns FALSE (0000ms, 0691ms total)
T1FF4 001:787 JLINK_IsHalted()  returns FALSE (0000ms, 0691ms total)
T1FF4 001:788 JLINK_IsHalted()  returns FALSE (0000ms, 0691ms total)
T1FF4 001:789 JLINK_IsHalted()  returns FALSE (0000ms, 0691ms total)
T1FF4 001:790 JLINK_IsHalted()  returns FALSE (0000ms, 0691ms total)
T1FF4 001:791 JLINK_IsHalted()  returns FALSE (0000ms, 0691ms total)
T1FF4 001:792 JLINK_IsHalted()  returns FALSE (0000ms, 0691ms total)
T1FF4 001:793 JLINK_IsHalted()  returns FALSE (0000ms, 0691ms total)
T1FF4 001:794 JLINK_IsHalted()  returns FALSE (0000ms, 0691ms total)
T1FF4 001:795 JLINK_IsHalted()  returns FALSE (0000ms, 0691ms total)
T1FF4 001:796 JLINK_IsHalted()  returns FALSE (0000ms, 0691ms total)
T1FF4 001:797 JLINK_IsHalted() -- CPU_ReadMem(2 bytes @ 0x20000000)  returns TRUE (0005ms, 0696ms total)
T1FF4 001:802 JLINK_ReadReg(R15 (PC))  returns 0x20000000 (0000ms, 0691ms total)
T1FF4 001:802 JLINK_ClrBPEx(BPHandle = 0x00000006)  returns 0x00 (0001ms, 0692ms total)
T1FF4 001:803 JLINK_ReadReg(R0)  returns 0x00000000 (0000ms, 0692ms total)
T1FF4 001:803 JLINK_WriteMem(0x20000164, 0x0400 Bytes, ...) -- Data:  4A 60 00 EB 80 03 CD 49 35 31 01 F8 23 20 00 EB ... -- CPU_WriteMem(1024 bytes @ 0x20000164)  returns 0x400 (0011ms, 0703ms total)
T1FF4 001:814 JLINK_WriteReg(R0, 0x08000800)  returns 0x00 (0000ms, 0703ms total)
T1FF4 001:814 JLINK_WriteReg(R1, 0x00000400)  returns 0x00 (0000ms, 0703ms total)
T1FF4 001:814 JLINK_WriteReg(R2, 0x20000164)  returns 0x00 (0000ms, 0703ms total)
T1FF4 001:814 JLINK_WriteReg(R3, 0x00000000)  returns 0x00 (0000ms, 0703ms total)
T1FF4 001:814 JLINK_WriteReg(R4, 0x00000000)  returns 0x00 (0000ms, 0703ms total)
T1FF4 001:814 JLINK_WriteReg(R5, 0x00000000)  returns 0x00 (0000ms, 0703ms total)
T1FF4 001:814 JLINK_WriteReg(R6, 0x00000000)  returns 0x00 (0000ms, 0703ms total)
T1FF4 001:814 JLINK_WriteReg(R7, 0x00000000)  returns 0x00 (0000ms, 0703ms total)
T1FF4 001:814 JLINK_WriteReg(R8, 0x00000000)  returns 0x00 (0000ms, 0703ms total)
T1FF4 001:814 JLINK_WriteReg(R9, 0x20000160)  returns 0x00 (0000ms, 0703ms total)
T1FF4 001:814 JLINK_WriteReg(R10, 0x00000000)  returns 0x00 (0000ms, 0703ms total)
T1FF4 001:814 JLINK_WriteReg(R11, 0x00000000)  returns 0x00 (0000ms, 0703ms total)
T1FF4 001:814 JLINK_WriteReg(R12, 0x00000000)  returns 0x00 (0000ms, 0703ms total)
T1FF4 001:814 JLINK_WriteReg(R13 (SP), 0x20000800)  returns 0x00 (0000ms, 0703ms total)
T1FF4 001:814 JLINK_WriteReg(R14, 0x20000001)  returns 0x00 (0000ms, 0703ms total)
T1FF4 001:814 JLINK_WriteReg(R15 (PC), 0x200000F4)  returns 0x00 (0000ms, 0703ms total)
T1FF4 001:814 JLINK_WriteReg(XPSR, 0x01000000)  returns 0x00 (0000ms, 0703ms total)
T1FF4 001:814 JLINK_WriteReg(MSP, 0x20000800)  returns 0x00 (0000ms, 0703ms total)
T1FF4 001:814 JLINK_WriteReg(PSP, 0x20000800)  returns 0x00 (0000ms, 0703ms total)
T1FF4 001:814 JLINK_WriteReg(CFBP, 0x00000000)  returns 0x00 (0000ms, 0703ms total)
T1FF4 001:814 JLINK_SetBPEx(Addr = 0x20000000, Type = 0xFFFFFFF2)  returns 0x00000007 (0000ms, 0703ms total)
T1FF4 001:814 JLINK_Go() (0002ms, 0705ms total)
T1FF4 001:816 JLINK_IsHalted()  returns FALSE (0001ms, 0706ms total)
T1FF4 001:821 JLINK_IsHalted()  returns FALSE (0000ms, 0705ms total)
T1FF4 001:822 JLINK_IsHalted()  returns FALSE (0000ms, 0705ms total)
T1FF4 001:823 JLINK_IsHalted()  returns FALSE (0000ms, 0705ms total)
T1FF4 001:842 JLINK_IsHalted()  returns FALSE (0000ms, 0705ms total)
T1FF4 001:843 JLINK_IsHalted()  returns FALSE (0000ms, 0705ms total)
T1FF4 001:844 JLINK_IsHalted()  returns FALSE (0000ms, 0705ms total)
T1FF4 001:845 JLINK_IsHalted()  returns FALSE (0000ms, 0705ms total)
T1FF4 001:846 JLINK_IsHalted()  returns FALSE (0000ms, 0705ms total)
T1FF4 001:847 JLINK_IsHalted()  returns FALSE (0000ms, 0705ms total)
T1FF4 001:848 JLINK_IsHalted() -- CPU_ReadMem(2 bytes @ 0x20000000)  returns TRUE (0005ms, 0710ms total)
T1FF4 001:853 JLINK_ReadReg(R15 (PC))  returns 0x20000000 (0001ms, 0706ms total)
T1FF4 001:854 JLINK_ClrBPEx(BPHandle = 0x00000007)  returns 0x00 (0000ms, 0706ms total)
T1FF4 001:854 JLINK_ReadReg(R0)  returns 0x00000000 (0000ms, 0706ms total)
T1FF4 001:854 JLINK_WriteMem(0x20000164, 0x0400 Bytes, ...) -- Data:  55 48 00 68 40 1C 54 49 08 60 54 48 00 6A 40 1C ... -- CPU_WriteMem(1024 bytes @ 0x20000164)  returns 0x400 (0011ms, 0717ms total)
T1FF4 001:866 JLINK_WriteReg(R0, 0x08000C00)  returns 0x00 (0000ms, 0717ms total)
T1FF4 001:866 JLINK_WriteReg(R1, 0x00000400)  returns 0x00 (0000ms, 0717ms total)
T1FF4 001:866 JLINK_WriteReg(R2, 0x20000164)  returns 0x00 (0000ms, 0717ms total)
T1FF4 001:866 JLINK_WriteReg(R3, 0x00000000)  returns 0x00 (0000ms, 0717ms total)
T1FF4 001:866 JLINK_WriteReg(R4, 0x00000000)  returns 0x00 (0000ms, 0717ms total)
T1FF4 001:866 JLINK_WriteReg(R5, 0x00000000)  returns 0x00 (0000ms, 0717ms total)
T1FF4 001:866 JLINK_WriteReg(R6, 0x00000000)  returns 0x00 (0000ms, 0717ms total)
T1FF4 001:866 JLINK_WriteReg(R7, 0x00000000)  returns 0x00 (0000ms, 0717ms total)
T1FF4 001:866 JLINK_WriteReg(R8, 0x00000000)  returns 0x00 (0000ms, 0717ms total)
T1FF4 001:866 JLINK_WriteReg(R9, 0x20000160)  returns 0x00 (0000ms, 0717ms total)
T1FF4 001:866 JLINK_WriteReg(R10, 0x00000000)  returns 0x00 (0000ms, 0717ms total)
T1FF4 001:866 JLINK_WriteReg(R11, 0x00000000)  returns 0x00 (0000ms, 0717ms total)
T1FF4 001:866 JLINK_WriteReg(R12, 0x00000000)  returns 0x00 (0000ms, 0717ms total)
T1FF4 001:866 JLINK_WriteReg(R13 (SP), 0x20000800)  returns 0x00 (0000ms, 0717ms total)
T1FF4 001:866 JLINK_WriteReg(R14, 0x20000001)  returns 0x00 (0000ms, 0717ms total)
T1FF4 001:866 JLINK_WriteReg(R15 (PC), 0x200000F4)  returns 0x00 (0000ms, 0717ms total)
T1FF4 001:866 JLINK_WriteReg(XPSR, 0x01000000)  returns 0x00 (0000ms, 0717ms total)
T1FF4 001:866 JLINK_WriteReg(MSP, 0x20000800)  returns 0x00 (0000ms, 0717ms total)
T1FF4 001:866 JLINK_WriteReg(PSP, 0x20000800)  returns 0x00 (0000ms, 0717ms total)
T1FF4 001:866 JLINK_WriteReg(CFBP, 0x00000000)  returns 0x00 (0000ms, 0717ms total)
T1FF4 001:866 JLINK_SetBPEx(Addr = 0x20000000, Type = 0xFFFFFFF2)  returns 0x00000008 (0000ms, 0717ms total)
T1FF4 001:866 JLINK_Go() (0002ms, 0719ms total)
T1FF4 001:868 JLINK_IsHalted()  returns FALSE (0001ms, 0720ms total)
T1FF4 001:871 JLINK_IsHalted()  returns FALSE (0000ms, 0719ms total)
T1FF4 001:872 JLINK_IsHalted()  returns FALSE (0000ms, 0719ms total)
T1FF4 001:873 JLINK_IsHalted()  returns FALSE (0000ms, 0719ms total)
T1FF4 001:874 JLINK_IsHalted()  returns FALSE (0000ms, 0719ms total)
T1FF4 001:875 JLINK_IsHalted()  returns FALSE (0000ms, 0719ms total)
T1FF4 001:876 JLINK_IsHalted()  returns FALSE (0000ms, 0719ms total)
T1FF4 001:877 JLINK_IsHalted()  returns FALSE (0000ms, 0719ms total)
T1FF4 001:878 JLINK_IsHalted()  returns FALSE (0000ms, 0719ms total)
T1FF4 001:879 JLINK_IsHalted()  returns FALSE (0000ms, 0719ms total)
T1FF4 001:880 JLINK_IsHalted()  returns FALSE (0000ms, 0719ms total)
T1FF4 001:881 JLINK_IsHalted()  returns FALSE (0000ms, 0719ms total)
T1FF4 001:882 JLINK_IsHalted()  returns FALSE (0000ms, 0719ms total)
T1FF4 001:883 JLINK_IsHalted()  returns FALSE (0001ms, 0720ms total)
T1FF4 001:885 JLINK_IsHalted()  returns FALSE (0000ms, 0719ms total)
T1FF4 001:886 JLINK_IsHalted()  returns FALSE (0000ms, 0719ms total)
T1FF4 001:890 JLINK_IsHalted()  returns FALSE (0000ms, 0719ms total)
T1FF4 001:891 JLINK_IsHalted()  returns FALSE (0000ms, 0719ms total)
T1FF4 001:892 JLINK_IsHalted()  returns FALSE (0000ms, 0719ms total)
T1FF4 001:893 JLINK_IsHalted()  returns FALSE (0000ms, 0719ms total)
T1FF4 001:894 JLINK_IsHalted()  returns FALSE (0000ms, 0719ms total)
T1FF4 001:895 JLINK_IsHalted()  returns FALSE (0000ms, 0719ms total)
T1FF4 001:896 JLINK_IsHalted()  returns FALSE (0000ms, 0719ms total)
T1FF4 001:897 JLINK_IsHalted()  returns FALSE (0000ms, 0719ms total)
T1FF4 001:898 JLINK_IsHalted()  returns FALSE (0000ms, 0719ms total)
T1FF4 001:899 JLINK_IsHalted() -- CPU_ReadMem(2 bytes @ 0x20000000)  returns TRUE (0005ms, 0724ms total)
T1FF4 001:904 JLINK_ReadReg(R15 (PC))  returns 0x20000000 (0000ms, 0719ms total)
T1FF4 001:904 JLINK_ClrBPEx(BPHandle = 0x00000008)  returns 0x00 (0000ms, 0719ms total)
T1FF4 001:905 JLINK_ReadReg(R0)  returns 0x00000000 (0000ms, 0720ms total)
T1FF4 001:905 JLINK_WriteMem(0x20000164, 0x0400 Bytes, ...) -- Data:  40 46 03 F0 39 F8 07 46 07 49 38 46 03 F0 6C F8 ... -- CPU_WriteMem(1024 bytes @ 0x20000164)  returns 0x400 (0011ms, 0731ms total)
T1FF4 001:916 JLINK_WriteReg(R0, 0x08001000)  returns 0x00 (0000ms, 0731ms total)
T1FF4 001:916 JLINK_WriteReg(R1, 0x00000400)  returns 0x00 (0000ms, 0731ms total)
T1FF4 001:916 JLINK_WriteReg(R2, 0x20000164)  returns 0x00 (0000ms, 0731ms total)
T1FF4 001:916 JLINK_WriteReg(R3, 0x00000000)  returns 0x00 (0000ms, 0731ms total)
T1FF4 001:916 JLINK_WriteReg(R4, 0x00000000)  returns 0x00 (0000ms, 0731ms total)
T1FF4 001:916 JLINK_WriteReg(R5, 0x00000000)  returns 0x00 (0000ms, 0731ms total)
T1FF4 001:916 JLINK_WriteReg(R6, 0x00000000)  returns 0x00 (0000ms, 0731ms total)
T1FF4 001:916 JLINK_WriteReg(R7, 0x00000000)  returns 0x00 (0000ms, 0731ms total)
T1FF4 001:916 JLINK_WriteReg(R8, 0x00000000)  returns 0x00 (0000ms, 0731ms total)
T1FF4 001:916 JLINK_WriteReg(R9, 0x20000160)  returns 0x00 (0000ms, 0731ms total)
T1FF4 001:916 JLINK_WriteReg(R10, 0x00000000)  returns 0x00 (0000ms, 0731ms total)
T1FF4 001:916 JLINK_WriteReg(R11, 0x00000000)  returns 0x00 (0000ms, 0731ms total)
T1FF4 001:916 JLINK_WriteReg(R12, 0x00000000)  returns 0x00 (0000ms, 0731ms total)
T1FF4 001:916 JLINK_WriteReg(R13 (SP), 0x20000800)  returns 0x00 (0000ms, 0731ms total)
T1FF4 001:916 JLINK_WriteReg(R14, 0x20000001)  returns 0x00 (0000ms, 0731ms total)
T1FF4 001:916 JLINK_WriteReg(R15 (PC), 0x200000F4)  returns 0x00 (0000ms, 0731ms total)
T1FF4 001:916 JLINK_WriteReg(XPSR, 0x01000000)  returns 0x00 (0000ms, 0731ms total)
T1FF4 001:916 JLINK_WriteReg(MSP, 0x20000800)  returns 0x00 (0000ms, 0731ms total)
T1FF4 001:916 JLINK_WriteReg(PSP, 0x20000800)  returns 0x00 (0000ms, 0731ms total)
T1FF4 001:916 JLINK_WriteReg(CFBP, 0x00000000)  returns 0x00 (0001ms, 0732ms total)
T1FF4 001:917 JLINK_SetBPEx(Addr = 0x20000000, Type = 0xFFFFFFF2)  returns 0x00000009 (0000ms, 0732ms total)
T1FF4 001:917 JLINK_Go() (0001ms, 0733ms total)
T1FF4 001:918 JLINK_IsHalted()  returns FALSE (0001ms, 0734ms total)
T1FF4 001:920 JLINK_IsHalted()  returns FALSE (0000ms, 0733ms total)
T1FF4 001:921 JLINK_IsHalted()  returns FALSE (0000ms, 0733ms total)
T1FF4 001:922 JLINK_IsHalted()  returns FALSE (0000ms, 0733ms total)
T1FF4 001:923 JLINK_IsHalted()  returns FALSE (0000ms, 0733ms total)
T1FF4 001:924 JLINK_IsHalted()  returns FALSE (0000ms, 0733ms total)
T1FF4 001:925 JLINK_IsHalted()  returns FALSE (0000ms, 0733ms total)
T1FF4 001:926 JLINK_IsHalted()  returns FALSE (0000ms, 0733ms total)
T1FF4 001:927 JLINK_IsHalted()  returns FALSE (0000ms, 0733ms total)
T1FF4 001:928 JLINK_IsHalted()  returns FALSE (0000ms, 0733ms total)
T1FF4 001:929 JLINK_IsHalted()  returns FALSE (0000ms, 0733ms total)
T1FF4 001:930 JLINK_IsHalted()  returns FALSE (0000ms, 0733ms total)
T1FF4 001:931 JLINK_IsHalted()  returns FALSE (0000ms, 0733ms total)
T1FF4 001:932 JLINK_IsHalted()  returns FALSE (0000ms, 0733ms total)
T1FF4 001:933 JLINK_IsHalted()  returns FALSE (0000ms, 0733ms total)
T1FF4 001:934 JLINK_IsHalted()  returns FALSE (0000ms, 0733ms total)
T1FF4 001:935 JLINK_IsHalted()  returns FALSE (0000ms, 0733ms total)
T1FF4 001:936 JLINK_IsHalted()  returns FALSE (0000ms, 0733ms total)
T1FF4 001:937 JLINK_IsHalted()  returns FALSE (0000ms, 0733ms total)
T1FF4 001:946 JLINK_IsHalted()  returns FALSE (0000ms, 0733ms total)
T1FF4 001:947 JLINK_IsHalted()  returns FALSE (0000ms, 0733ms total)
T1FF4 001:948 JLINK_IsHalted()  returns FALSE (0000ms, 0733ms total)
T1FF4 001:949 JLINK_IsHalted()  returns FALSE (0000ms, 0733ms total)
T1FF4 001:965 JLINK_IsHalted() -- CPU_ReadMem(2 bytes @ 0x20000000)  returns TRUE (0007ms, 0740ms total)
T1FF4 001:972 JLINK_ReadReg(R15 (PC))  returns 0x20000000 (0000ms, 0733ms total)
T1FF4 001:972 JLINK_ClrBPEx(BPHandle = 0x00000009)  returns 0x00 (0000ms, 0733ms total)
T1FF4 001:972 JLINK_ReadReg(R0)  returns 0x00000000 (0000ms, 0733ms total)
T1FF4 001:972 JLINK_WriteMem(0x20000164, 0x0400 Bytes, ...) -- Data:  04 10 46 1C 57 48 05 72 55 21 41 72 81 72 C1 72 ... -- CPU_WriteMem(1024 bytes @ 0x20000164)  returns 0x400 (0012ms, 0745ms total)
T1FF4 001:984 JLINK_WriteReg(R0, 0x08001400)  returns 0x00 (0000ms, 0745ms total)
T1FF4 001:984 JLINK_WriteReg(R1, 0x00000400)  returns 0x00 (0000ms, 0745ms total)
T1FF4 001:984 JLINK_WriteReg(R2, 0x20000164)  returns 0x00 (0000ms, 0745ms total)
T1FF4 001:984 JLINK_WriteReg(R3, 0x00000000)  returns 0x00 (0000ms, 0745ms total)
T1FF4 001:984 JLINK_WriteReg(R4, 0x00000000)  returns 0x00 (0000ms, 0745ms total)
T1FF4 001:984 JLINK_WriteReg(R5, 0x00000000)  returns 0x00 (0000ms, 0745ms total)
T1FF4 001:984 JLINK_WriteReg(R6, 0x00000000)  returns 0x00 (0000ms, 0745ms total)
T1FF4 001:984 JLINK_WriteReg(R7, 0x00000000)  returns 0x00 (0000ms, 0745ms total)
T1FF4 001:984 JLINK_WriteReg(R8, 0x00000000)  returns 0x00 (0000ms, 0745ms total)
T1FF4 001:984 JLINK_WriteReg(R9, 0x20000160)  returns 0x00 (0000ms, 0745ms total)
T1FF4 001:984 JLINK_WriteReg(R10, 0x00000000)  returns 0x00 (0000ms, 0745ms total)
T1FF4 001:984 JLINK_WriteReg(R11, 0x00000000)  returns 0x00 (0000ms, 0745ms total)
T1FF4 001:984 JLINK_WriteReg(R12, 0x00000000)  returns 0x00 (0000ms, 0745ms total)
T1FF4 001:984 JLINK_WriteReg(R13 (SP), 0x20000800)  returns 0x00 (0000ms, 0745ms total)
T1FF4 001:984 JLINK_WriteReg(R14, 0x20000001)  returns 0x00 (0000ms, 0745ms total)
T1FF4 001:984 JLINK_WriteReg(R15 (PC), 0x200000F4)  returns 0x00 (0000ms, 0745ms total)
T1FF4 001:984 JLINK_WriteReg(XPSR, 0x01000000)  returns 0x00 (0000ms, 0745ms total)
T1FF4 001:984 JLINK_WriteReg(MSP, 0x20000800)  returns 0x00 (0000ms, 0745ms total)
T1FF4 001:984 JLINK_WriteReg(PSP, 0x20000800)  returns 0x00 (0000ms, 0745ms total)
T1FF4 001:984 JLINK_WriteReg(CFBP, 0x00000000)  returns 0x00 (0000ms, 0745ms total)
T1FF4 001:984 JLINK_SetBPEx(Addr = 0x20000000, Type = 0xFFFFFFF2)  returns 0x0000000A (0000ms, 0745ms total)
T1FF4 001:984 JLINK_Go() (0003ms, 0748ms total)
T1FF4 001:987 JLINK_IsHalted()  returns FALSE (0001ms, 0749ms total)
T1FF4 002:008 JLINK_IsHalted()  returns FALSE (0000ms, 0748ms total)
T1FF4 002:009 JLINK_IsHalted()  returns FALSE (0000ms, 0748ms total)
T1FF4 002:010 JLINK_IsHalted()  returns FALSE (0000ms, 0748ms total)
T1FF4 002:011 JLINK_IsHalted()  returns FALSE (0000ms, 0748ms total)
T1FF4 002:012 JLINK_IsHalted()  returns FALSE (0000ms, 0748ms total)
T1FF4 002:013 JLINK_IsHalted()  returns FALSE (0000ms, 0748ms total)
T1FF4 002:014 JLINK_IsHalted()  returns FALSE (0000ms, 0748ms total)
T1FF4 002:015 JLINK_IsHalted()  returns FALSE (0000ms, 0748ms total)
T1FF4 002:016 JLINK_IsHalted()  returns FALSE (0000ms, 0748ms total)
T1FF4 002:017 JLINK_IsHalted()  returns FALSE (0000ms, 0748ms total)
T1FF4 002:018 JLINK_IsHalted() -- CPU_ReadMem(2 bytes @ 0x20000000)  returns TRUE (0005ms, 0753ms total)
T1FF4 002:023 JLINK_ReadReg(R15 (PC))  returns 0x20000000 (0000ms, 0748ms total)
T1FF4 002:023 JLINK_ClrBPEx(BPHandle = 0x0000000A)  returns 0x00 (0000ms, 0748ms total)
T1FF4 002:023 JLINK_ReadReg(R0)  returns 0x00000000 (0000ms, 0748ms total)
T1FF4 002:024 JLINK_WriteMem(0x20000164, 0x0400 Bytes, ...) -- Data:  70 47 01 46 00 20 83 4A 50 68 20 F4 60 50 40 EA ... -- CPU_WriteMem(1024 bytes @ 0x20000164)  returns 0x400 (0011ms, 0759ms total)
T1FF4 002:035 JLINK_WriteReg(R0, 0x08001800)  returns 0x00 (0000ms, 0759ms total)
T1FF4 002:035 JLINK_WriteReg(R1, 0x00000400)  returns 0x00 (0000ms, 0759ms total)
T1FF4 002:035 JLINK_WriteReg(R2, 0x20000164)  returns 0x00 (0000ms, 0759ms total)
T1FF4 002:035 JLINK_WriteReg(R3, 0x00000000)  returns 0x00 (0000ms, 0759ms total)
T1FF4 002:035 JLINK_WriteReg(R4, 0x00000000)  returns 0x00 (0000ms, 0759ms total)
T1FF4 002:035 JLINK_WriteReg(R5, 0x00000000)  returns 0x00 (0000ms, 0759ms total)
T1FF4 002:035 JLINK_WriteReg(R6, 0x00000000)  returns 0x00 (0000ms, 0759ms total)
T1FF4 002:035 JLINK_WriteReg(R7, 0x00000000)  returns 0x00 (0000ms, 0759ms total)
T1FF4 002:035 JLINK_WriteReg(R8, 0x00000000)  returns 0x00 (0000ms, 0759ms total)
T1FF4 002:035 JLINK_WriteReg(R9, 0x20000160)  returns 0x00 (0000ms, 0759ms total)
T1FF4 002:035 JLINK_WriteReg(R10, 0x00000000)  returns 0x00 (0000ms, 0759ms total)
T1FF4 002:035 JLINK_WriteReg(R11, 0x00000000)  returns 0x00 (0000ms, 0759ms total)
T1FF4 002:035 JLINK_WriteReg(R12, 0x00000000)  returns 0x00 (0000ms, 0759ms total)
T1FF4 002:035 JLINK_WriteReg(R13 (SP), 0x20000800)  returns 0x00 (0000ms, 0759ms total)
T1FF4 002:035 JLINK_WriteReg(R14, 0x20000001)  returns 0x00 (0000ms, 0759ms total)
T1FF4 002:035 JLINK_WriteReg(R15 (PC), 0x200000F4)  returns 0x00 (0000ms, 0759ms total)
T1FF4 002:035 JLINK_WriteReg(XPSR, 0x01000000)  returns 0x00 (0000ms, 0759ms total)
T1FF4 002:035 JLINK_WriteReg(MSP, 0x20000800)  returns 0x00 (0000ms, 0759ms total)
T1FF4 002:035 JLINK_WriteReg(PSP, 0x20000800)  returns 0x00 (0000ms, 0759ms total)
T1FF4 002:035 JLINK_WriteReg(CFBP, 0x00000000)  returns 0x00 (0000ms, 0759ms total)
T1FF4 002:035 JLINK_SetBPEx(Addr = 0x20000000, Type = 0xFFFFFFF2)  returns 0x0000000B (0000ms, 0759ms total)
T1FF4 002:035 JLINK_Go() (0002ms, 0761ms total)
T1FF4 002:037 JLINK_IsHalted()  returns FALSE (0001ms, 0762ms total)
T1FF4 002:039 JLINK_IsHalted()  returns FALSE (0000ms, 0761ms total)
T1FF4 002:040 JLINK_IsHalted()  returns FALSE (0000ms, 0761ms total)
T1FF4 002:041 JLINK_IsHalted()  returns FALSE (0000ms, 0761ms total)
T1FF4 002:042 JLINK_IsHalted()  returns FALSE (0000ms, 0761ms total)
T1FF4 002:043 JLINK_IsHalted()  returns FALSE (0000ms, 0761ms total)
T1FF4 002:044 JLINK_IsHalted()  returns FALSE (0000ms, 0761ms total)
T1FF4 002:056 JLINK_IsHalted()  returns FALSE (0000ms, 0761ms total)
T1FF4 002:057 JLINK_IsHalted()  returns FALSE (0000ms, 0761ms total)
T1FF4 002:058 JLINK_IsHalted()  returns FALSE (0000ms, 0761ms total)
T1FF4 002:060 JLINK_IsHalted()  returns FALSE (0000ms, 0761ms total)
T1FF4 002:061 JLINK_IsHalted()  returns FALSE (0000ms, 0761ms total)
T1FF4 002:062 JLINK_IsHalted()  returns FALSE (0000ms, 0761ms total)
T1FF4 002:063 JLINK_IsHalted()  returns FALSE (0000ms, 0761ms total)
T1FF4 002:064 JLINK_IsHalted()  returns FALSE (0000ms, 0761ms total)
T1FF4 002:065 JLINK_IsHalted()  returns FALSE (0000ms, 0761ms total)
T1FF4 002:066 JLINK_IsHalted()  returns FALSE (0000ms, 0761ms total)
T1FF4 002:067 JLINK_IsHalted()  returns FALSE (0000ms, 0761ms total)
T1FF4 002:068 JLINK_IsHalted() -- CPU_ReadMem(2 bytes @ 0x20000000)  returns TRUE (0006ms, 0767ms total)
T1FF4 002:074 JLINK_ReadReg(R15 (PC))  returns 0x20000000 (0000ms, 0761ms total)
T1FF4 002:074 JLINK_ClrBPEx(BPHandle = 0x0000000B)  returns 0x00 (0000ms, 0761ms total)
T1FF4 002:074 JLINK_ReadReg(R0)  returns 0x00000000 (0000ms, 0761ms total)
T1FF4 002:074 JLINK_WriteMem(0x20000164, 0x0400 Bytes, ...) -- Data:  10 80 40 1C 08 28 CE D3 54 60 BD E8 F0 81 4F F6 ... -- CPU_WriteMem(1024 bytes @ 0x20000164)  returns 0x400 (0011ms, 0772ms total)
T1FF4 002:085 JLINK_WriteReg(R0, 0x08001C00)  returns 0x00 (0000ms, 0772ms total)
T1FF4 002:085 JLINK_WriteReg(R1, 0x00000400)  returns 0x00 (0000ms, 0772ms total)
T1FF4 002:085 JLINK_WriteReg(R2, 0x20000164)  returns 0x00 (0000ms, 0772ms total)
T1FF4 002:085 JLINK_WriteReg(R3, 0x00000000)  returns 0x00 (0000ms, 0772ms total)
T1FF4 002:086 JLINK_WriteReg(R4, 0x00000000)  returns 0x00 (0000ms, 0773ms total)
T1FF4 002:086 JLINK_WriteReg(R5, 0x00000000)  returns 0x00 (0000ms, 0773ms total)
T1FF4 002:086 JLINK_WriteReg(R6, 0x00000000)  returns 0x00 (0000ms, 0773ms total)
T1FF4 002:086 JLINK_WriteReg(R7, 0x00000000)  returns 0x00 (0000ms, 0773ms total)
T1FF4 002:086 JLINK_WriteReg(R8, 0x00000000)  returns 0x00 (0000ms, 0773ms total)
T1FF4 002:086 JLINK_WriteReg(R9, 0x20000160)  returns 0x00 (0000ms, 0773ms total)
T1FF4 002:086 JLINK_WriteReg(R10, 0x00000000)  returns 0x00 (0000ms, 0773ms total)
T1FF4 002:086 JLINK_WriteReg(R11, 0x00000000)  returns 0x00 (0000ms, 0773ms total)
T1FF4 002:086 JLINK_WriteReg(R12, 0x00000000)  returns 0x00 (0000ms, 0773ms total)
T1FF4 002:086 JLINK_WriteReg(R13 (SP), 0x20000800)  returns 0x00 (0000ms, 0773ms total)
T1FF4 002:086 JLINK_WriteReg(R14, 0x20000001)  returns 0x00 (0000ms, 0773ms total)
T1FF4 002:086 JLINK_WriteReg(R15 (PC), 0x200000F4)  returns 0x00 (0000ms, 0773ms total)
T1FF4 002:086 JLINK_WriteReg(XPSR, 0x01000000)  returns 0x00 (0000ms, 0773ms total)
T1FF4 002:086 JLINK_WriteReg(MSP, 0x20000800)  returns 0x00 (0000ms, 0773ms total)
T1FF4 002:086 JLINK_WriteReg(PSP, 0x20000800)  returns 0x00 (0000ms, 0773ms total)
T1FF4 002:086 JLINK_WriteReg(CFBP, 0x00000000)  returns 0x00 (0000ms, 0773ms total)
T1FF4 002:086 JLINK_SetBPEx(Addr = 0x20000000, Type = 0xFFFFFFF2)  returns 0x0000000C (0000ms, 0773ms total)
T1FF4 002:086 JLINK_Go() (0002ms, 0775ms total)
T1FF4 002:088 JLINK_IsHalted()  returns FALSE (0000ms, 0775ms total)
T1FF4 002:092 JLINK_IsHalted()  returns FALSE (0000ms, 0775ms total)
T1FF4 002:093 JLINK_IsHalted()  returns FALSE (0000ms, 0775ms total)
T1FF4 002:094 JLINK_IsHalted()  returns FALSE (0000ms, 0775ms total)
T1FF4 002:095 JLINK_IsHalted()  returns FALSE (0000ms, 0775ms total)
T1FF4 002:096 JLINK_IsHalted()  returns FALSE (0000ms, 0775ms total)
T1FF4 002:097 JLINK_IsHalted()  returns FALSE (0000ms, 0775ms total)
T1FF4 002:098 JLINK_IsHalted()  returns FALSE (0000ms, 0775ms total)
T1FF4 002:099 JLINK_IsHalted()  returns FALSE (0000ms, 0775ms total)
T1FF4 002:100 JLINK_IsHalted()  returns FALSE (0000ms, 0775ms total)
T1FF4 002:101 JLINK_IsHalted()  returns FALSE (0000ms, 0775ms total)
T1FF4 002:102 JLINK_IsHalted()  returns FALSE (0000ms, 0775ms total)
T1FF4 002:103 JLINK_IsHalted()  returns FALSE (0000ms, 0775ms total)
T1FF4 002:104 JLINK_IsHalted()  returns FALSE (0000ms, 0775ms total)
T1FF4 002:105 JLINK_IsHalted()  returns FALSE (0000ms, 0775ms total)
T1FF4 002:106 JLINK_IsHalted()  returns FALSE (0000ms, 0775ms total)
T1FF4 002:110 JLINK_IsHalted()  returns FALSE (0000ms, 0775ms total)
T1FF4 002:111 JLINK_IsHalted()  returns FALSE (0000ms, 0775ms total)
T1FF4 002:112 JLINK_IsHalted()  returns FALSE (0000ms, 0775ms total)
T1FF4 002:113 JLINK_IsHalted()  returns FALSE (0000ms, 0775ms total)
T1FF4 002:114 JLINK_IsHalted()  returns FALSE (0000ms, 0775ms total)
T1FF4 002:115 JLINK_IsHalted()  returns FALSE (0000ms, 0775ms total)
T1FF4 002:116 JLINK_IsHalted()  returns FALSE (0000ms, 0775ms total)
T1FF4 002:117 JLINK_IsHalted()  returns FALSE (0000ms, 0775ms total)
T1FF4 002:118 JLINK_IsHalted()  returns FALSE (0000ms, 0775ms total)
T1FF4 002:119 JLINK_IsHalted() -- CPU_ReadMem(2 bytes @ 0x20000000)  returns TRUE (0005ms, 0780ms total)
T1FF4 002:124 JLINK_ReadReg(R15 (PC))  returns 0x20000000 (0000ms, 0775ms total)
T1FF4 002:124 JLINK_ClrBPEx(BPHandle = 0x0000000C)  returns 0x00 (0001ms, 0776ms total)
T1FF4 002:125 JLINK_ReadReg(R0)  returns 0x00000000 (0000ms, 0776ms total)
T1FF4 002:125 JLINK_WriteMem(0x20000164, 0x0400 Bytes, ...) -- Data:  73 4D A8 42 13 D1 4F F6 F7 75 2A 40 4D 89 2A 43 ... -- CPU_WriteMem(1024 bytes @ 0x20000164)  returns 0x400 (0011ms, 0787ms total)
T1FF4 002:136 JLINK_WriteReg(R0, 0x08002000)  returns 0x00 (0000ms, 0787ms total)
T1FF4 002:136 JLINK_WriteReg(R1, 0x00000400)  returns 0x00 (0000ms, 0787ms total)
T1FF4 002:136 JLINK_WriteReg(R2, 0x20000164)  returns 0x00 (0000ms, 0787ms total)
T1FF4 002:136 JLINK_WriteReg(R3, 0x00000000)  returns 0x00 (0000ms, 0787ms total)
T1FF4 002:136 JLINK_WriteReg(R4, 0x00000000)  returns 0x00 (0000ms, 0787ms total)
T1FF4 002:136 JLINK_WriteReg(R5, 0x00000000)  returns 0x00 (0000ms, 0787ms total)
T1FF4 002:136 JLINK_WriteReg(R6, 0x00000000)  returns 0x00 (0000ms, 0787ms total)
T1FF4 002:136 JLINK_WriteReg(R7, 0x00000000)  returns 0x00 (0000ms, 0787ms total)
T1FF4 002:136 JLINK_WriteReg(R8, 0x00000000)  returns 0x00 (0000ms, 0787ms total)
T1FF4 002:136 JLINK_WriteReg(R9, 0x20000160)  returns 0x00 (0000ms, 0787ms total)
T1FF4 002:136 JLINK_WriteReg(R10, 0x00000000)  returns 0x00 (0000ms, 0787ms total)
T1FF4 002:136 JLINK_WriteReg(R11, 0x00000000)  returns 0x00 (0000ms, 0787ms total)
T1FF4 002:136 JLINK_WriteReg(R12, 0x00000000)  returns 0x00 (0000ms, 0787ms total)
T1FF4 002:136 JLINK_WriteReg(R13 (SP), 0x20000800)  returns 0x00 (0000ms, 0787ms total)
T1FF4 002:136 JLINK_WriteReg(R14, 0x20000001)  returns 0x00 (0000ms, 0787ms total)
T1FF4 002:136 JLINK_WriteReg(R15 (PC), 0x200000F4)  returns 0x00 (0000ms, 0787ms total)
T1FF4 002:136 JLINK_WriteReg(XPSR, 0x01000000)  returns 0x00 (0000ms, 0787ms total)
T1FF4 002:136 JLINK_WriteReg(MSP, 0x20000800)  returns 0x00 (0000ms, 0787ms total)
T1FF4 002:136 JLINK_WriteReg(PSP, 0x20000800)  returns 0x00 (0000ms, 0787ms total)
T1FF4 002:136 JLINK_WriteReg(CFBP, 0x00000000)  returns 0x00 (0000ms, 0787ms total)
T1FF4 002:136 JLINK_SetBPEx(Addr = 0x20000000, Type = 0xFFFFFFF2)  returns 0x0000000D (0000ms, 0787ms total)
T1FF4 002:136 JLINK_Go() (0002ms, 0789ms total)
T1FF4 002:138 JLINK_IsHalted()  returns FALSE (0001ms, 0790ms total)
T1FF4 002:140 JLINK_IsHalted()  returns FALSE (0000ms, 0789ms total)
T1FF4 002:141 JLINK_IsHalted()  returns FALSE (0001ms, 0790ms total)
T1FF4 002:143 JLINK_IsHalted()  returns FALSE (0000ms, 0789ms total)
T1FF4 002:144 JLINK_IsHalted()  returns FALSE (0000ms, 0789ms total)
T1FF4 002:145 JLINK_IsHalted()  returns FALSE (0000ms, 0789ms total)
T1FF4 002:147 JLINK_IsHalted()  returns FALSE (0000ms, 0789ms total)
T1FF4 002:148 JLINK_IsHalted()  returns FALSE (0000ms, 0789ms total)
T1FF4 002:150 JLINK_IsHalted()  returns FALSE (0001ms, 0790ms total)
T1FF4 002:152 JLINK_IsHalted()  returns FALSE (0001ms, 0790ms total)
T1FF4 002:167 JLINK_IsHalted()  returns FALSE (0000ms, 0789ms total)
T1FF4 002:168 JLINK_IsHalted()  returns FALSE (0000ms, 0789ms total)
T1FF4 002:169 JLINK_IsHalted()  returns FALSE (0000ms, 0789ms total)
T1FF4 002:170 JLINK_IsHalted() -- CPU_ReadMem(2 bytes @ 0x20000000)  returns TRUE (0006ms, 0795ms total)
T1FF4 002:176 JLINK_ReadReg(R15 (PC))  returns 0x20000000 (0000ms, 0789ms total)
T1FF4 002:176 JLINK_ClrBPEx(BPHandle = 0x0000000D)  returns 0x00 (0000ms, 0789ms total)
T1FF4 002:176 JLINK_ReadReg(R0)  returns 0x00000000 (0000ms, 0789ms total)
T1FF4 002:176 JLINK_WriteMem(0x20000164, 0x0400 Bytes, ...) -- Data:  06 8C 4F F6 FE 77 3E 40 06 84 02 8B 01 8C 4F F6 ... -- CPU_WriteMem(1024 bytes @ 0x20000164)  returns 0x400 (0011ms, 0800ms total)
T1FF4 002:187 JLINK_WriteReg(R0, 0x08002400)  returns 0x00 (0001ms, 0801ms total)
T1FF4 002:188 JLINK_WriteReg(R1, 0x00000400)  returns 0x00 (0000ms, 0801ms total)
T1FF4 002:188 JLINK_WriteReg(R2, 0x20000164)  returns 0x00 (0000ms, 0801ms total)
T1FF4 002:188 JLINK_WriteReg(R3, 0x00000000)  returns 0x00 (0000ms, 0801ms total)
T1FF4 002:188 JLINK_WriteReg(R4, 0x00000000)  returns 0x00 (0000ms, 0801ms total)
T1FF4 002:188 JLINK_WriteReg(R5, 0x00000000)  returns 0x00 (0000ms, 0801ms total)
T1FF4 002:188 JLINK_WriteReg(R6, 0x00000000)  returns 0x00 (0000ms, 0801ms total)
T1FF4 002:188 JLINK_WriteReg(R7, 0x00000000)  returns 0x00 (0000ms, 0801ms total)
T1FF4 002:188 JLINK_WriteReg(R8, 0x00000000)  returns 0x00 (0000ms, 0801ms total)
T1FF4 002:188 JLINK_WriteReg(R9, 0x20000160)  returns 0x00 (0000ms, 0801ms total)
T1FF4 002:188 JLINK_WriteReg(R10, 0x00000000)  returns 0x00 (0000ms, 0801ms total)
T1FF4 002:188 JLINK_WriteReg(R11, 0x00000000)  returns 0x00 (0000ms, 0801ms total)
T1FF4 002:188 JLINK_WriteReg(R12, 0x00000000)  returns 0x00 (0000ms, 0801ms total)
T1FF4 002:188 JLINK_WriteReg(R13 (SP), 0x20000800)  returns 0x00 (0000ms, 0801ms total)
T1FF4 002:188 JLINK_WriteReg(R14, 0x20000001)  returns 0x00 (0000ms, 0801ms total)
T1FF4 002:188 JLINK_WriteReg(R15 (PC), 0x200000F4)  returns 0x00 (0000ms, 0801ms total)
T1FF4 002:188 JLINK_WriteReg(XPSR, 0x01000000)  returns 0x00 (0000ms, 0801ms total)
T1FF4 002:188 JLINK_WriteReg(MSP, 0x20000800)  returns 0x00 (0000ms, 0801ms total)
T1FF4 002:188 JLINK_WriteReg(PSP, 0x20000800)  returns 0x00 (0000ms, 0801ms total)
T1FF4 002:188 JLINK_WriteReg(CFBP, 0x00000000)  returns 0x00 (0000ms, 0801ms total)
T1FF4 002:188 JLINK_SetBPEx(Addr = 0x20000000, Type = 0xFFFFFFF2)  returns 0x0000000E (0000ms, 0801ms total)
T1FF4 002:188 JLINK_Go() (0002ms, 0803ms total)
T1FF4 002:190 JLINK_IsHalted()  returns FALSE (0000ms, 0803ms total)
T1FF4 002:194 JLINK_IsHalted()  returns FALSE (0000ms, 0803ms total)
T1FF4 002:195 JLINK_IsHalted()  returns FALSE (0000ms, 0803ms total)
T1FF4 002:196 JLINK_IsHalted()  returns FALSE (0000ms, 0803ms total)
T1FF4 002:197 JLINK_IsHalted()  returns FALSE (0000ms, 0803ms total)
T1FF4 002:198 JLINK_IsHalted()  returns FALSE (0000ms, 0803ms total)
T1FF4 002:199 JLINK_IsHalted()  returns FALSE (0000ms, 0803ms total)
T1FF4 002:200 JLINK_IsHalted()  returns FALSE (0000ms, 0803ms total)
T1FF4 002:201 JLINK_IsHalted()  returns FALSE (0001ms, 0804ms total)
T1FF4 002:203 JLINK_IsHalted()  returns FALSE (0000ms, 0803ms total)
T1FF4 002:204 JLINK_IsHalted()  returns FALSE (0000ms, 0803ms total)
T1FF4 002:205 JLINK_IsHalted()  returns FALSE (0000ms, 0803ms total)
T1FF4 002:206 JLINK_IsHalted()  returns FALSE (0000ms, 0803ms total)
T1FF4 002:207 JLINK_IsHalted()  returns FALSE (0000ms, 0803ms total)
T1FF4 002:208 JLINK_IsHalted()  returns FALSE (0000ms, 0803ms total)
